T3034 000:009.076   SEGGER J-Link V7.94e Log File
T3034 000:009.168   DLL Compiled: Jan 15 2024 15:13:38
T3034 000:009.172   Logging started @ 2025-04-02 08:04
T3034 000:009.175   Process: C:\Keil_v5\UV4\UV4.exe
T3034 000:009.179 - 9.178ms
T3034 000:009.186 JLINK_SetWarnOutHandler(...)
T3034 000:009.189 - 0.004ms
T3034 000:009.193 JLINK_OpenEx(...)
T3034 000:011.624   Firmware: J-Link V9 compiled May  7 2021 16:26:12
T3034 000:012.636   Firmware: J-Link V9 compiled May  7 2021 16:26:12
T3034 000:012.774   Decompressing FW timestamp took 117 us
T3034 000:018.396   Hardware: V9.30
T3034 000:018.407   S/N: 59300616
T3034 000:018.411   OEM: SEGGER
T3034 000:018.416   Feature(s): RDI, FlashBP, FlashDL, JFlash, GDB
T3034 000:018.914   Bootloader: (Could not read)
T3034 000:019.498   TELNET listener socket opened on port 19021
T3034 000:019.600   WEBSRV WEBSRV_Init(): Starting webserver thread(s)
T3034 000:019.728   WEBSRV Webserver running on local port 19080
T3034 000:019.831   Looking for J-Link GUI Server exe at: C:\Keil_v5\ARM\Segger\JLinkGUIServer.exe
T3034 000:019.903   Looking for J-Link GUI Server exe at: \JLinkGUIServer.exe
T3034 000:327.274   Failed to connect to J-Link GUI Server.
T3034 000:327.322 - 318.103ms returns "O.K."
T3034 000:327.336 JLINK_GetEmuCaps()
T3034 000:327.343 - 0.004ms returns 0xB9FF7BBF
T3034 000:327.353 JLINK_TIF_GetAvailable(...)
T3034 000:327.724 - 0.370ms
T3034 000:327.749 JLINK_SetErrorOutHandler(...)
T3034 000:327.752 - 0.003ms
T3034 000:327.767 JLINK_ExecCommand("ProjectFile = "D:\stm32\project\ADS1247_Demo\MDK-ARM\JLinkSettings.ini"", ...). 
T3034 000:340.240   Ref file found at: C:\Keil_v5\ARM\Segger\JLinkDevices.ref
T3034 000:340.371   REF file references invalid XML file: C:\Program Files\SEGGER\JLink_V794e\JLinkDevices.xml
T3034 000:341.384 - 13.616ms returns 0x00
T3034 000:341.477 JLINK_ExecCommand("Device = STM32G431KBUx", ...). 
T3034 000:342.307   Flash bank @ 0x08000000: SFL: Parsing sectorization info from ELF file
T3034 000:342.322     FlashDevice.SectorInfo[0]: .SectorSize = 0x00000800, .SectorStartAddr = 0x00000000
T3034 000:342.329   FlashBank @0x08000000: Sectorization info from SFL ELF file ignored because sectorization override from DLL / XML file is active.
T3034 000:342.423   Device "STM32G431KB" selected.
T3034 000:342.649 - 1.162ms returns 0x00
T3034 000:342.658 JLINK_ExecCommand("DisableConnectionTimeout", ...). 
T3034 000:342.663 - 0.001ms returns 0x01
T3034 000:342.668 JLINK_GetHardwareVersion()
T3034 000:342.674 - 0.003ms returns 93000
T3034 000:342.678 JLINK_GetDLLVersion()
T3034 000:342.681 - 0.003ms returns 79405
T3034 000:342.685 JLINK_GetOEMString(...)
T3034 000:342.689 JLINK_GetFirmwareString(...)
T3034 000:342.692 - 0.003ms
T3034 000:342.725 JLINK_GetDLLVersion()
T3034 000:342.729 - 0.003ms returns 79405
T3034 000:342.733 JLINK_GetCompileDateTime()
T3034 000:342.736 - 0.003ms
T3034 000:342.751 JLINK_GetFirmwareString(...)
T3034 000:342.755 - 0.003ms
T3034 000:342.761 JLINK_GetHardwareVersion()
T3034 000:342.764 - 0.003ms returns 93000
T3034 000:342.771 JLINK_GetSN()
T3034 000:342.774 - 0.003ms returns 59300616
T3034 000:342.780 JLINK_GetOEMString(...)
T3034 000:342.789 JLINK_TIF_Select(JLINKARM_TIF_SWD)
T3034 000:344.052 - 1.263ms returns 0x00
T3034 000:344.063 JLINK_HasError()
T3034 000:344.074 JLINK_SetSpeed(5000)
T3034 000:344.214 - 0.140ms
T3034 000:344.227 JLINK_GetId()
T3034 000:344.514   InitTarget() start
T3034 000:344.525    J-Link Script File: Executing InitTarget()
T3034 000:344.772   SWD selected. Executing JTAG -> SWD switching sequence.
T3034 000:346.469   DAP initialized successfully.
T3034 000:351.806   InitTarget() end - Took 7.27ms
T3034 000:352.317   Found SW-DP with ID 0x2BA01477
T3034 000:353.946   DPIDR: 0x2BA01477
T3034 000:353.963   CoreSight SoC-400 or earlier
T3034 000:353.975   Scanning AP map to find all available APs
T3034 000:354.488   AP[1]: Stopped AP scan as end of AP map has been reached
T3034 000:354.504   AP[0]: AHB-AP (IDR: 0x24770011)
T3034 000:354.514   Iterating through AP map to find AHB-AP to use
T3034 000:355.355   AP[0]: Core found
T3034 000:355.363   AP[0]: AHB-AP ROM base: 0xE00FF000
T3034 000:355.783   CPUID register: 0x410FC241. Implementer code: 0x41 (ARM)
T3034 000:355.792   Found Cortex-M4 r0p1, Little endian.
T3034 000:356.024   -- Max. mem block: 0x00010C20
T3034 000:356.330   CPU_ReadMem(4 bytes @ 0xE000EDF0)
T3034 000:356.536   CPU_ReadMem(4 bytes @ 0xE0002000)
T3034 000:356.756   FPUnit: 6 code (BP) slots and 2 literal slots
T3034 000:356.762   CPU_ReadMem(4 bytes @ 0xE000EDFC)
T3034 000:356.969   CPU_WriteMem(4 bytes @ 0xE000EDFC)
T3034 000:357.185   CPU_ReadMem(4 bytes @ 0xE0001000)
T3034 000:357.388   CPU_WriteMem(4 bytes @ 0xE0001000)
T3034 000:357.604   CPU_ReadMem(4 bytes @ 0xE000ED88)
T3034 000:357.822   CPU_WriteMem(4 bytes @ 0xE000ED88)
T3034 000:358.046   CPU_ReadMem(4 bytes @ 0xE000ED88)
T3034 000:358.274   CPU_WriteMem(4 bytes @ 0xE000ED88)
T3034 000:358.558   CoreSight components:
T3034 000:358.570   ROMTbl[0] @ E00FF000
T3034 000:358.576   CPU_ReadMem(64 bytes @ 0xE00FF000)
T3034 000:359.065   CPU_ReadMem(32 bytes @ 0xE000EFE0)
T3034 000:359.466   [0][0]: E000E000 CID B105E00D PID 000BB00C SCS-M7
T3034 000:359.472   CPU_ReadMem(32 bytes @ 0xE0001FE0)
T3034 000:359.868   [0][1]: E0001000 CID B105E00D PID 003BB002 DWT
T3034 000:359.873   CPU_ReadMem(32 bytes @ 0xE0002FE0)
T3034 000:360.249   [0][2]: E0002000 CID B105E00D PID 002BB003 FPB
T3034 000:360.254   CPU_ReadMem(32 bytes @ 0xE0000FE0)
T3034 000:360.855   [0][3]: E0000000 CID B105E00D PID 003BB001 ITM
T3034 000:360.906   CPU_ReadMem(32 bytes @ 0xE0040FE0)
T3034 000:361.383   [0][4]: E0040000 CID B105900D PID 000BB9A1 TPIU
T3034 000:361.397   CPU_ReadMem(32 bytes @ 0xE0041FE0)
T3034 000:361.756   [0][5]: E0041000 CID B105900D PID 000BB925 ETM
T3034 000:361.938 - 17.710ms returns 0x2BA01477
T3034 000:361.947 JLINK_GetDLLVersion()
T3034 000:361.950 - 0.003ms returns 79405
T3034 000:361.955 JLINK_CORE_GetFound()
T3034 000:361.958 - 0.003ms returns 0xE0000FF
T3034 000:361.963 JLINK_GetDebugInfo(0x100 = JLINKARM_ROM_TABLE_ADDR_INDEX)
T3034 000:361.966   Value=0xE00FF000
T3034 000:361.971 - 0.008ms returns 0
T3034 000:361.980 JLINK_GetDebugInfo(0x100 = JLINKARM_ROM_TABLE_ADDR_INDEX)
T3034 000:361.983   Value=0xE00FF000
T3034 000:361.988 - 0.007ms returns 0
T3034 000:361.992 JLINK_GetDebugInfo(0x101 = JLINKARM_DEBUG_INFO_ETM_ADDR_INDEX)
T3034 000:361.995   Value=0xE0041000
T3034 000:362.000 - 0.007ms returns 0
T3034 000:362.005 JLINK_ReadMemEx(0xE0041FD0, 0x20 Bytes, Flags = 0x02000004)
T3034 000:362.019   CPU_ReadMem(32 bytes @ 0xE0041FD0)
T3034 000:362.359   Data:  04 00 00 00 00 00 00 00 00 00 00 00 00 00 00 00 ...
T3034 000:362.365 - 0.359ms returns 32 (0x20)
T3034 000:362.371 JLINK_GetDebugInfo(0x102 = JLINKARM_DEBUG_INFO_MTB_ADDR_INDEX)
T3034 000:362.374   Value=0x00000000
T3034 000:362.379 - 0.007ms returns 0
T3034 000:362.383 JLINK_GetDebugInfo(0x103 = JLINKARM_DEBUG_INFO_TPIU_ADDR_INDEX)
T3034 000:362.386   Value=0xE0040000
T3034 000:362.390 - 0.007ms returns 0
T3034 000:362.394 JLINK_GetDebugInfo(0x104 = JLINKARM_DEBUG_INFO_ITM_ADDR_INDEX)
T3034 000:362.397   Value=0xE0000000
T3034 000:362.402 - 0.007ms returns 0
T3034 000:362.406 JLINK_GetDebugInfo(0x105 = JLINKARM_DEBUG_INFO_DWT_ADDR_INDEX)
T3034 000:362.409   Value=0xE0001000
T3034 000:362.414 - 0.007ms returns 0
T3034 000:362.417 JLINK_GetDebugInfo(0x106 = JLINKARM_DEBUG_INFO_FPB_ADDR_INDEX)
T3034 000:362.421   Value=0xE0002000
T3034 000:362.425 - 0.007ms returns 0
T3034 000:362.429 JLINK_GetDebugInfo(0x107 = JLINKARM_DEBUG_INFO_NVIC_ADDR_INDEX)
T3034 000:362.433   Value=0xE000E000
T3034 000:362.437 - 0.008ms returns 0
T3034 000:362.441 JLINK_GetDebugInfo(0x10C = JLINKARM_DEBUG_INFO_DBG_ADDR_INDEX)
T3034 000:362.445   Value=0xE000EDF0
T3034 000:362.449 - 0.008ms returns 0
T3034 000:362.454 JLINK_ReadMemU32(0xE000EF40, 0x1 Items)
T3034 000:362.459   CPU_ReadMem(4 bytes @ 0xE000EF40)
T3034 000:362.673   Data:  21 00 11 10
T3034 000:362.678 - 0.224ms returns 1 (0x1)
T3034 000:362.686 JLINK_ReadMemU32(0xE000EF44, 0x1 Items)
T3034 000:362.692   CPU_ReadMem(4 bytes @ 0xE000EF44)
T3034 000:362.900   Data:  11 00 00 11
T3034 000:362.905 - 0.219ms returns 1 (0x1)
T3034 000:362.911 JLINK_ReadMemU32(0xE000ED00, 0x1 Items)
T3034 000:362.916   CPU_ReadMem(4 bytes @ 0xE000ED00)
T3034 000:363.187   Data:  41 C2 0F 41
T3034 000:363.193   Debug reg: CPUID
T3034 000:363.197 - 0.286ms returns 1 (0x1)
T3034 000:363.203 JLINK_GetDebugInfo(0x10F = JLINKARM_DEBUG_INFO_HAS_CORTEX_M_SECURITY_EXT_INDEX)
T3034 000:363.207   Value=0x00000000
T3034 000:363.211 - 0.008ms returns 0
T3034 000:363.215 JLINK_HasError()
T3034 000:363.220 JLINK_SetResetType(JLINKARM_CM3_RESET_TYPE_NORMAL)
T3034 000:363.223 - 0.003ms returns JLINKARM_CM3_RESET_TYPE_NORMAL
T3034 000:363.228 JLINK_Reset()
T3034 000:363.237   CPU is running
T3034 000:363.242   CPU_WriteMem(4 bytes @ 0xE000EDF0)
T3034 000:363.500   CPU is running
T3034 000:363.505   CPU_WriteMem(4 bytes @ 0xE000EDFC)
T3034 000:363.719   Reset: Halt core after reset via DEMCR.VC_CORERESET.
T3034 000:363.988   Reset: Reset device via AIRCR.SYSRESETREQ.
T3034 000:363.993   CPU is running
T3034 000:363.999   CPU_WriteMem(4 bytes @ 0xE000ED0C)
T3034 000:416.833   CPU_ReadMem(4 bytes @ 0xE000EDF0)
T3034 000:417.231   CPU_ReadMem(4 bytes @ 0xE000EDF0)
T3034 000:419.549   CPU_WriteMem(4 bytes @ 0xE000EDFC)
T3034 000:425.744   CPU_ReadMem(4 bytes @ 0xE000EDF0)
T3034 000:427.817   CPU_WriteMem(4 bytes @ 0xE0002000)
T3034 000:428.069   CPU_ReadMem(4 bytes @ 0xE000EDFC)
T3034 000:428.337   CPU_ReadMem(4 bytes @ 0xE0001000)
T3034 000:428.555 - 65.327ms
T3034 000:428.568 JLINK_HasError()
T3034 000:428.575 JLINK_ReadReg(R15 (PC))
T3034 000:428.581 - 0.008ms returns 0x080001EC
T3034 000:428.585 JLINK_ReadReg(XPSR)
T3034 000:428.589 - 0.003ms returns 0x01000000
T3034 000:428.593 JLINK_Halt()
T3034 000:428.597 - 0.003ms returns 0x00
T3034 000:428.601 JLINK_ReadMemU32(0xE000EDF0, 0x1 Items)
T3034 000:428.608   CPU_ReadMem(4 bytes @ 0xE000EDF0)
T3034 000:428.815   Data:  03 00 03 00
T3034 000:428.820   Debug reg: DHCSR
T3034 000:428.825 - 0.223ms returns 1 (0x1)
T3034 000:428.833 JLINK_WriteU32_64(0xE000EDF0, 0xA05F0003)
T3034 000:428.836   Debug reg: DHCSR
T3034 000:429.044   CPU_WriteMem(4 bytes @ 0xE000EDF0)
T3034 000:429.338 - 0.505ms returns 0 (0x00000000)
T3034 000:429.345 JLINK_WriteU32_64(0xE000EDFC, 0x01000000)
T3034 000:429.349   Debug reg: DEMCR
T3034 000:429.355   CPU_WriteMem(4 bytes @ 0xE000EDFC)
T3034 000:429.561 - 0.215ms returns 0 (0x00000000)
T3034 000:429.595 JLINK_GetHWStatus(...)
T3034 000:429.721 - 0.126ms returns 0
T3034 000:429.784 JLINK_GetNumBPUnits(Type = 0xFFFFFF00)
T3034 000:429.789 - 0.005ms returns 0x06
T3034 000:429.793 JLINK_GetNumBPUnits(Type = 0xF0)
T3034 000:429.797 - 0.003ms returns 0x2000
T3034 000:429.801 JLINK_GetNumWPUnits()
T3034 000:429.805 - 0.003ms returns 4
T3034 000:429.817 JLINK_GetSpeed()
T3034 000:429.820 - 0.003ms returns 4000
T3034 000:429.828 JLINK_ReadMemU32(0xE000E004, 0x1 Items)
T3034 000:429.835   CPU_ReadMem(4 bytes @ 0xE000E004)
T3034 000:430.074   Data:  03 00 00 00
T3034 000:430.099 - 0.270ms returns 1 (0x1)
T3034 000:430.106 JLINK_ReadMemU32(0xE000E004, 0x1 Items)
T3034 000:430.114   CPU_ReadMem(4 bytes @ 0xE000E004)
T3034 000:430.344   Data:  03 00 00 00
T3034 000:430.354 - 0.248ms returns 1 (0x1)
T3034 000:430.360 JLINK_WriteMemEx(0xE0001000, 0x0000001C Bytes, Flags = 0x02000004)
T3034 000:430.364   Data:  01 00 00 00 00 00 00 00 00 00 00 00 00 00 00 00 ...
T3034 000:430.374   CPU_WriteMem(28 bytes @ 0xE0001000)
T3034 000:430.765 - 0.403ms returns 0x1C
T3034 000:430.787 JLINK_HasError()
T3034 000:430.793 JLINK_ReadReg(R15 (PC))
T3034 000:430.799 - 0.005ms returns 0x080001EC
T3034 000:430.804 JLINK_ReadReg(XPSR)
T3034 000:430.808 - 0.004ms returns 0x01000000
T3034 000:512.532 JLINK_HasError()
T3034 000:512.553 JLINK_SetResetType(JLINKARM_CM3_RESET_TYPE_NORMAL)
T3034 000:512.558 - 0.004ms returns JLINKARM_CM3_RESET_TYPE_NORMAL
T3034 000:512.562 JLINK_Reset()
T3034 000:512.582   CPU_WriteMem(4 bytes @ 0xE000EDF0)
T3034 000:512.991   CPU_WriteMem(4 bytes @ 0xE000EDFC)
T3034 000:513.541   Reset: Halt core after reset via DEMCR.VC_CORERESET.
T3034 000:514.064   Reset: Reset device via AIRCR.SYSRESETREQ.
T3034 000:514.082   CPU_WriteMem(4 bytes @ 0xE000ED0C)
T3034 000:568.212   CPU_ReadMem(4 bytes @ 0xE000EDF0)
T3034 000:568.503   CPU_ReadMem(4 bytes @ 0xE000EDF0)
T3034 000:568.720   CPU_WriteMem(4 bytes @ 0xE000EDFC)
T3034 000:574.313   CPU_ReadMem(4 bytes @ 0xE000EDF0)
T3034 000:576.341   CPU_WriteMem(4 bytes @ 0xE0002000)
T3034 000:576.567   CPU_ReadMem(4 bytes @ 0xE000EDFC)
T3034 000:576.779   CPU_ReadMem(4 bytes @ 0xE0001000)
T3034 000:577.008 - 64.445ms
T3034 000:577.036 JLINK_HasError()
T3034 000:577.041 JLINK_ReadReg(R15 (PC))
T3034 000:577.060 - 0.019ms returns 0x080001EC
T3034 000:577.064 JLINK_ReadReg(XPSR)
T3034 000:577.068 - 0.003ms returns 0x01000000
T3034 000:577.453 JLINK_ReadMemEx(0x080001EC, 0x3C Bytes, Flags = 0x02000000)
T3034 000:577.468   CPU_ReadMem(128 bytes @ 0x080001C0)
T3034 000:578.256    -- Updating C cache (128 bytes @ 0x080001C0)
T3034 000:578.262    -- Read from C cache (60 bytes @ 0x080001EC)
T3034 000:578.268   Data:  06 48 80 47 06 48 00 47 FE E7 FE E7 FE E7 FE E7 ...
T3034 000:578.273 - 0.820ms returns 60 (0x3C)
T3034 001:856.828 JLINK_HasError()
T3034 001:856.856 JLINK_ReadReg(R0)
T3034 001:857.299 - 0.442ms returns 0x00000000
T3034 001:857.306 JLINK_ReadReg(R1)
T3034 001:857.311 - 0.004ms returns 0x00000000
T3034 001:857.316 JLINK_ReadReg(R2)
T3034 001:857.320 - 0.004ms returns 0x00000000
T3034 001:857.324 JLINK_ReadReg(R3)
T3034 001:857.329 - 0.004ms returns 0x00000000
T3034 001:857.333 JLINK_ReadReg(R4)
T3034 001:857.337 - 0.004ms returns 0x00000000
T3034 001:857.342 JLINK_ReadReg(R5)
T3034 001:857.346 - 0.004ms returns 0x00000000
T3034 001:857.351 JLINK_ReadReg(R6)
T3034 001:857.355 - 0.004ms returns 0x00000000
T3034 001:857.359 JLINK_ReadReg(R7)
T3034 001:857.363 - 0.004ms returns 0x00000000
T3034 001:857.374 JLINK_ReadReg(R8)
T3034 001:857.378 - 0.010ms returns 0x00000000
T3034 001:857.383 JLINK_ReadReg(R9)
T3034 001:857.387 - 0.004ms returns 0x00000000
T3034 001:857.392 JLINK_ReadReg(R10)
T3034 001:857.396 - 0.004ms returns 0x00000000
T3034 001:857.400 JLINK_ReadReg(R11)
T3034 001:857.404 - 0.004ms returns 0x00000000
T3034 001:857.409 JLINK_ReadReg(R12)
T3034 001:857.413 - 0.004ms returns 0x00000000
T3034 001:857.418 JLINK_ReadReg(R13 (SP))
T3034 001:857.422 - 0.004ms returns 0x20000570
T3034 001:857.427 JLINK_ReadReg(R14)
T3034 001:857.431 - 0.004ms returns 0xFFFFFFFF
T3034 001:857.435 JLINK_ReadReg(R15 (PC))
T3034 001:857.440 - 0.004ms returns 0x080001EC
T3034 001:857.444 JLINK_ReadReg(XPSR)
T3034 001:857.448 - 0.004ms returns 0x01000000
T3034 001:857.453 JLINK_ReadReg(MSP)
T3034 001:857.457 - 0.004ms returns 0x20000570
T3034 001:857.461 JLINK_ReadReg(PSP)
T3034 001:857.465 - 0.004ms returns 0x00000000
T3034 001:857.470 JLINK_ReadReg(CFBP)
T3034 001:857.474 - 0.004ms returns 0x00000000
T3034 001:857.479 JLINK_ReadReg(FPSCR)
T3034 001:860.672 - 3.191ms returns 0x00000000
T3034 001:860.694 JLINK_ReadReg(FPS0)
T3034 001:860.720 - 0.025ms returns 0x00000000
T3034 001:860.728 JLINK_ReadReg(FPS1)
T3034 001:860.738 - 0.009ms returns 0x00000000
T3034 001:860.747 JLINK_ReadReg(FPS2)
T3034 001:860.756 - 0.008ms returns 0x00000000
T3034 001:860.764 JLINK_ReadReg(FPS3)
T3034 001:860.772 - 0.007ms returns 0x00000000
T3034 001:860.778 JLINK_ReadReg(FPS4)
T3034 001:860.783 - 0.005ms returns 0x00000000
T3034 001:860.789 JLINK_ReadReg(FPS5)
T3034 001:860.794 - 0.005ms returns 0x00000000
T3034 001:860.800 JLINK_ReadReg(FPS6)
T3034 001:860.805 - 0.005ms returns 0x00000000
T3034 001:860.810 JLINK_ReadReg(FPS7)
T3034 001:860.816 - 0.005ms returns 0x00000000
T3034 001:860.822 JLINK_ReadReg(FPS8)
T3034 001:860.828 - 0.005ms returns 0x00000000
T3034 001:860.833 JLINK_ReadReg(FPS9)
T3034 001:860.838 - 0.005ms returns 0x00000000
T3034 001:860.844 JLINK_ReadReg(FPS10)
T3034 001:860.916 - 0.072ms returns 0x00000000
T3034 001:860.925 JLINK_ReadReg(FPS11)
T3034 001:860.931 - 0.005ms returns 0x00000000
T3034 001:860.947 JLINK_ReadReg(FPS12)
T3034 001:860.952 - 0.005ms returns 0x00000000
T3034 001:860.958 JLINK_ReadReg(FPS13)
T3034 001:860.963 - 0.005ms returns 0x00000000
T3034 001:860.969 JLINK_ReadReg(FPS14)
T3034 001:860.974 - 0.005ms returns 0x00000000
T3034 001:860.982 JLINK_ReadReg(FPS15)
T3034 001:860.987 - 0.005ms returns 0x00000000
T3034 001:860.993 JLINK_ReadReg(FPS16)
T3034 001:860.998 - 0.005ms returns 0x00000000
T3034 001:861.003 JLINK_ReadReg(FPS17)
T3034 001:861.009 - 0.005ms returns 0x00000000
T3034 001:861.014 JLINK_ReadReg(FPS18)
T3034 001:861.019 - 0.005ms returns 0x00000000
T3034 001:861.025 JLINK_ReadReg(FPS19)
T3034 001:861.030 - 0.005ms returns 0x00000000
T3034 001:861.035 JLINK_ReadReg(FPS20)
T3034 001:861.041 - 0.005ms returns 0x00000000
T3034 001:861.046 JLINK_ReadReg(FPS21)
T3034 001:861.051 - 0.005ms returns 0x00000000
T3034 001:861.057 JLINK_ReadReg(FPS22)
T3034 001:861.062 - 0.005ms returns 0x00000000
T3034 001:861.068 JLINK_ReadReg(FPS23)
T3034 001:861.073 - 0.005ms returns 0x00000000
T3034 001:861.078 JLINK_ReadReg(FPS24)
T3034 001:861.083 - 0.005ms returns 0x00000000
T3034 001:861.089 JLINK_ReadReg(FPS25)
T3034 001:861.094 - 0.005ms returns 0x00000000
T3034 001:861.100 JLINK_ReadReg(FPS26)
T3034 001:861.105 - 0.005ms returns 0x00000000
T3034 001:861.110 JLINK_ReadReg(FPS27)
T3034 001:861.115 - 0.005ms returns 0x00000000
T3034 001:861.121 JLINK_ReadReg(FPS28)
T3034 001:861.126 - 0.005ms returns 0x00000000
T3034 001:861.132 JLINK_ReadReg(FPS29)
T3034 001:861.137 - 0.005ms returns 0x00000000
T3034 001:861.142 JLINK_ReadReg(FPS30)
T3034 001:861.147 - 0.005ms returns 0x00000000
T3034 001:861.153 JLINK_ReadReg(FPS31)
T3034 001:861.158 - 0.005ms returns 0x00000000
T61D0 001:895.450 JLINK_ReadMemEx(0x080001EC, 0x2 Bytes, Flags = 0x02000000)
T61D0 001:895.503    -- Read from C cache (2 bytes @ 0x080001EC)
T61D0 001:895.526   Data:  06 48
T61D0 001:895.550 - 0.101ms returns 2 (0x2)
T61D0 001:895.569 JLINK_HasError()
T61D0 001:895.592 JLINK_SetBPEx(Addr = 0x08002DE4, Type = 0xFFFFFFF2)
T61D0 001:895.619 - 0.027ms returns 0x00000001
T61D0 001:895.641 JLINK_HasError()
T61D0 001:895.646 JLINK_SetBPEx(Addr = 0x08002E04, Type = 0xFFFFFFF2)
T61D0 001:895.651 - 0.004ms returns 0x00000002
T61D0 001:895.655 JLINK_HasError()
T61D0 001:895.660 JLINK_SetBPEx(Addr = 0x0800057E, Type = 0xFFFFFFF2)
T61D0 001:895.665 - 0.004ms returns 0x00000003
T61D0 001:895.670 JLINK_HasError()
T61D0 001:895.675 JLINK_HasError()
T61D0 001:895.686 JLINK_Go()
T61D0 001:895.697   CPU_WriteMem(4 bytes @ 0xE0002000)
T61D0 001:896.020   CPU_WriteMem(4 bytes @ 0xE0002000)
T61D0 001:896.357   CPU_WriteMem(4 bytes @ 0xE0002000)
T61D0 001:896.735   CPU_ReadMem(4 bytes @ 0xE0001000)
T61D0 001:897.082   CPU_WriteMem(4 bytes @ 0xE0002008)
T61D0 001:897.090   CPU_WriteMem(4 bytes @ 0xE000200C)
T61D0 001:897.096   CPU_WriteMem(4 bytes @ 0xE0002010)
T61D0 001:897.102   CPU_WriteMem(4 bytes @ 0xE0002014)
T61D0 001:897.107   CPU_WriteMem(4 bytes @ 0xE0002018)
T61D0 001:897.113   CPU_WriteMem(4 bytes @ 0xE000201C)
T61D0 001:898.208   CPU_WriteMem(4 bytes @ 0xE0001004)
T61D0 001:899.031   Memory map 'after startup completion point' is active
T61D0 001:899.038 - 3.352ms
T61D0 001:999.978 JLINK_HasError()
T61D0 002:000.002 JLINK_IsHalted()
T61D0 002:001.855 - 1.853ms returns TRUE
T61D0 002:001.871 JLINK_HasError()
T61D0 002:001.876 JLINK_Halt()
T61D0 002:001.880 - 0.004ms returns 0x00
T61D0 002:001.885 JLINK_IsHalted()
T61D0 002:001.888 - 0.003ms returns TRUE
T61D0 002:001.893 JLINK_IsHalted()
T61D0 002:001.897 - 0.003ms returns TRUE
T61D0 002:001.901 JLINK_IsHalted()
T61D0 002:001.905 - 0.003ms returns TRUE
T61D0 002:001.910 JLINK_HasError()
T61D0 002:001.915 JLINK_ReadReg(R15 (PC))
T61D0 002:001.921 - 0.006ms returns 0x08002DE4
T61D0 002:001.926 JLINK_ReadReg(XPSR)
T61D0 002:001.930 - 0.004ms returns 0x61000000
T61D0 002:001.937 JLINK_HasError()
T61D0 002:001.948 JLINK_ClrBPEx(BPHandle = 0x00000001)
T61D0 002:001.952 - 0.004ms returns 0x00
T61D0 002:001.957 JLINK_HasError()
T61D0 002:001.962 JLINK_ClrBPEx(BPHandle = 0x00000002)
T61D0 002:001.966 - 0.004ms returns 0x00
T61D0 002:001.970 JLINK_HasError()
T61D0 002:001.974 JLINK_ClrBPEx(BPHandle = 0x00000003)
T61D0 002:001.978 - 0.004ms returns 0x00
T61D0 002:001.983 JLINK_HasError()
T61D0 002:001.987 JLINK_HasError()
T61D0 002:001.992 JLINK_ReadMemU32(0xE000ED30, 0x1 Items)
T61D0 002:002.002   CPU_ReadMem(4 bytes @ 0xE000ED30)
T61D0 002:002.281   Data:  02 00 00 00
T61D0 002:002.304 - 0.311ms returns 1 (0x1)
T61D0 002:002.311 JLINK_ReadMemU32(0xE0001028, 0x1 Items)
T61D0 002:002.321   CPU_ReadMem(4 bytes @ 0xE0001028)
T61D0 002:002.554   Data:  00 00 00 00
T61D0 002:002.563   Debug reg: DWT_FUNC[0]
T61D0 002:002.569 - 0.258ms returns 1 (0x1)
T61D0 002:002.576 JLINK_ReadMemU32(0xE0001038, 0x1 Items)
T61D0 002:002.583   CPU_ReadMem(4 bytes @ 0xE0001038)
T61D0 002:002.805   Data:  00 02 00 00
T61D0 002:002.812   Debug reg: DWT_FUNC[1]
T61D0 002:002.818 - 0.242ms returns 1 (0x1)
T61D0 002:002.823 JLINK_ReadMemU32(0xE0001048, 0x1 Items)
T61D0 002:002.829   CPU_ReadMem(4 bytes @ 0xE0001048)
T61D0 002:003.072   Data:  00 00 00 00
T61D0 002:003.078   Debug reg: DWT_FUNC[2]
T61D0 002:003.083 - 0.259ms returns 1 (0x1)
T61D0 002:003.087 JLINK_ReadMemU32(0xE0001058, 0x1 Items)
T61D0 002:003.092   CPU_ReadMem(4 bytes @ 0xE0001058)
T61D0 002:003.351   Data:  00 00 00 00
T61D0 002:003.363   Debug reg: DWT_FUNC[3]
T61D0 002:003.373 - 0.285ms returns 1 (0x1)
T61D0 002:003.414 JLINK_HasError()
T61D0 002:003.424 JLINK_ReadReg(R0)
T61D0 002:003.433 - 0.009ms returns 0x08002DE5
T61D0 002:003.441 JLINK_ReadReg(R1)
T61D0 002:003.448 - 0.007ms returns 0x20000570
T61D0 002:003.456 JLINK_ReadReg(R2)
T61D0 002:003.463 - 0.007ms returns 0x00000000
T61D0 002:003.471 JLINK_ReadReg(R3)
T61D0 002:003.478 - 0.007ms returns 0x08002AD1
T61D0 002:003.486 JLINK_ReadReg(R4)
T61D0 002:003.493 - 0.006ms returns 0x08002E78
T61D0 002:003.501 JLINK_ReadReg(R5)
T61D0 002:003.508 - 0.007ms returns 0x08002E78
T61D0 002:003.515 JLINK_ReadReg(R6)
T61D0 002:003.522 - 0.007ms returns 0x00000000
T61D0 002:003.530 JLINK_ReadReg(R7)
T61D0 002:003.537 - 0.006ms returns 0x00000000
T61D0 002:003.545 JLINK_ReadReg(R8)
T61D0 002:003.552 - 0.007ms returns 0x00000000
T61D0 002:003.560 JLINK_ReadReg(R9)
T61D0 002:003.567 - 0.007ms returns 0x00000000
T61D0 002:003.575 JLINK_ReadReg(R10)
T61D0 002:003.582 - 0.007ms returns 0x00000000
T61D0 002:003.590 JLINK_ReadReg(R11)
T61D0 002:003.597 - 0.007ms returns 0x00000000
T61D0 002:003.604 JLINK_ReadReg(R12)
T61D0 002:003.612 - 0.007ms returns 0x00000000
T61D0 002:003.619 JLINK_ReadReg(R13 (SP))
T61D0 002:003.627 - 0.007ms returns 0x20000570
T61D0 002:003.635 JLINK_ReadReg(R14)
T61D0 002:003.642 - 0.007ms returns 0x080002F1
T61D0 002:003.650 JLINK_ReadReg(R15 (PC))
T61D0 002:003.657 - 0.007ms returns 0x08002DE4
T61D0 002:003.665 JLINK_ReadReg(XPSR)
T61D0 002:003.672 - 0.007ms returns 0x61000000
T61D0 002:003.680 JLINK_ReadReg(MSP)
T61D0 002:003.686 - 0.006ms returns 0x20000570
T61D0 002:003.694 JLINK_ReadReg(PSP)
T61D0 002:003.701 - 0.007ms returns 0x00000000
T61D0 002:003.709 JLINK_ReadReg(CFBP)
T61D0 002:003.716 - 0.007ms returns 0x00000000
T61D0 002:003.724 JLINK_ReadReg(FPSCR)
T61D0 002:006.743 - 3.015ms returns 0x00000000
T61D0 002:006.817 JLINK_ReadReg(FPS0)
T61D0 002:006.835 - 0.017ms returns 0x00000000
T61D0 002:006.849 JLINK_ReadReg(FPS1)
T61D0 002:006.860 - 0.010ms returns 0x00000000
T61D0 002:006.870 JLINK_ReadReg(FPS2)
T61D0 002:006.879 - 0.008ms returns 0x00000000
T61D0 002:006.889 JLINK_ReadReg(FPS3)
T61D0 002:006.899 - 0.009ms returns 0x00000000
T61D0 002:006.909 JLINK_ReadReg(FPS4)
T61D0 002:006.918 - 0.009ms returns 0x00000000
T61D0 002:006.928 JLINK_ReadReg(FPS5)
T61D0 002:006.938 - 0.009ms returns 0x00000000
T61D0 002:006.952 JLINK_ReadReg(FPS6)
T61D0 002:006.965 - 0.012ms returns 0x00000000
T61D0 002:006.978 JLINK_ReadReg(FPS7)
T61D0 002:007.001 - 0.022ms returns 0x00000000
T61D0 002:007.016 JLINK_ReadReg(FPS8)
T61D0 002:007.029 - 0.013ms returns 0x00000000
T61D0 002:007.043 JLINK_ReadReg(FPS9)
T61D0 002:007.056 - 0.013ms returns 0x00000000
T61D0 002:007.071 JLINK_ReadReg(FPS10)
T61D0 002:007.085 - 0.013ms returns 0x00000000
T61D0 002:007.100 JLINK_ReadReg(FPS11)
T61D0 002:007.114 - 0.013ms returns 0x00000000
T61D0 002:007.129 JLINK_ReadReg(FPS12)
T61D0 002:007.140 - 0.011ms returns 0x00000000
T61D0 002:007.158 JLINK_ReadReg(FPS13)
T61D0 002:007.162 - 0.004ms returns 0x00000000
T61D0 002:007.167 JLINK_ReadReg(FPS14)
T61D0 002:007.171 - 0.004ms returns 0x00000000
T61D0 002:007.176 JLINK_ReadReg(FPS15)
T61D0 002:007.181 - 0.004ms returns 0x00000000
T61D0 002:007.186 JLINK_ReadReg(FPS16)
T61D0 002:007.190 - 0.004ms returns 0x00000000
T61D0 002:007.195 JLINK_ReadReg(FPS17)
T61D0 002:007.200 - 0.004ms returns 0x00000000
T61D0 002:007.204 JLINK_ReadReg(FPS18)
T61D0 002:007.209 - 0.004ms returns 0x00000000
T61D0 002:007.215 JLINK_ReadReg(FPS19)
T61D0 002:007.219 - 0.004ms returns 0x00000000
T61D0 002:007.223 JLINK_ReadReg(FPS20)
T61D0 002:007.227 - 0.004ms returns 0x00000000
T61D0 002:007.232 JLINK_ReadReg(FPS21)
T61D0 002:007.236 - 0.003ms returns 0x00000000
T61D0 002:007.240 JLINK_ReadReg(FPS22)
T61D0 002:007.244 - 0.004ms returns 0x00000000
T61D0 002:007.249 JLINK_ReadReg(FPS23)
T61D0 002:007.253 - 0.004ms returns 0x00000000
T61D0 002:007.257 JLINK_ReadReg(FPS24)
T61D0 002:007.261 - 0.003ms returns 0x00000000
T61D0 002:007.266 JLINK_ReadReg(FPS25)
T61D0 002:007.270 - 0.004ms returns 0x00000000
T61D0 002:007.274 JLINK_ReadReg(FPS26)
T61D0 002:007.278 - 0.004ms returns 0x00000000
T61D0 002:007.283 JLINK_ReadReg(FPS27)
T61D0 002:007.287 - 0.004ms returns 0x00000000
T61D0 002:007.291 JLINK_ReadReg(FPS28)
T61D0 002:007.295 - 0.004ms returns 0x00000000
T61D0 002:007.300 JLINK_ReadReg(FPS29)
T61D0 002:007.304 - 0.004ms returns 0x00000000
T61D0 002:007.308 JLINK_ReadReg(FPS30)
T61D0 002:007.312 - 0.004ms returns 0x00000000
T61D0 002:007.317 JLINK_ReadReg(FPS31)
T61D0 002:007.321 - 0.004ms returns 0x00000000
T3034 002:134.200 JLINK_HasError()
T3034 002:134.224 JLINK_ReadMemU32(0xE0001004, 0x1 Items)
T3034 002:134.241   CPU_ReadMem(4 bytes @ 0xE0001004)
T3034 002:134.595   Data:  A5 08 00 00
T3034 002:134.617   Debug reg: DWT_CYCCNT
T3034 002:134.622 - 0.397ms returns 1 (0x1)
T61D0 002:380.606 JLINK_ReadMemEx(0x08002DE4, 0x2 Bytes, Flags = 0x02000000)
T61D0 002:380.636   CPU_ReadMem(64 bytes @ 0x08002DC0)
T61D0 002:381.273    -- Updating C cache (64 bytes @ 0x08002DC0)
T61D0 002:381.296    -- Read from C cache (2 bytes @ 0x08002DE4)
T61D0 002:381.303   Data:  FD F7
T61D0 002:381.311 - 0.705ms returns 2 (0x2)
T61D0 002:381.321 JLINK_HasError()
T61D0 002:381.343 JLINK_SetBPEx(Addr = 0x08002E04, Type = 0xFFFFFFF2)
T61D0 002:381.352 - 0.009ms returns 0x00000004
T61D0 002:381.358 JLINK_HasError()
T61D0 002:381.364 JLINK_SetBPEx(Addr = 0x0800057E, Type = 0xFFFFFFF2)
T61D0 002:381.370 - 0.005ms returns 0x00000005
T61D0 002:381.375 JLINK_HasError()
T61D0 002:381.380 JLINK_HasError()
T61D0 002:381.386 JLINK_Go()
T61D0 002:381.395   CPU_WriteMem(4 bytes @ 0xE0002000)
T61D0 002:381.688   CPU_WriteMem(4 bytes @ 0xE0002000)
T61D0 002:382.097   CPU_ReadMem(4 bytes @ 0xE0001000)
T61D0 002:382.350   CPU_WriteMem(4 bytes @ 0xE0002008)
T61D0 002:382.362   CPU_WriteMem(4 bytes @ 0xE000200C)
T61D0 002:382.367   CPU_WriteMem(4 bytes @ 0xE0002010)
T61D0 002:383.365 - 1.978ms
T61D0 002:483.765 JLINK_HasError()
T61D0 002:483.789 JLINK_IsHalted()
T61D0 002:484.255 - 0.465ms returns FALSE
T61D0 002:584.855 JLINK_HasError()
T61D0 002:584.881 JLINK_IsHalted()
T61D0 002:585.334 - 0.453ms returns FALSE
T61D0 002:686.409 JLINK_HasError()
T61D0 002:686.434 JLINK_IsHalted()
T61D0 002:688.439 - 2.004ms returns TRUE
T61D0 002:688.464 JLINK_HasError()
T61D0 002:688.470 JLINK_Halt()
T61D0 002:688.475 - 0.004ms returns 0x00
T61D0 002:688.480 JLINK_IsHalted()
T61D0 002:688.484 - 0.004ms returns TRUE
T61D0 002:688.495 JLINK_IsHalted()
T61D0 002:688.499 - 0.004ms returns TRUE
T61D0 002:688.504 JLINK_IsHalted()
T61D0 002:688.508 - 0.004ms returns TRUE
T61D0 002:688.513 JLINK_HasError()
T61D0 002:688.519 JLINK_ReadReg(R15 (PC))
T61D0 002:688.526 - 0.007ms returns 0x0800057E
T61D0 002:688.531 JLINK_ReadReg(XPSR)
T61D0 002:688.536 - 0.004ms returns 0x81000038
T61D0 002:688.544 JLINK_HasError()
T61D0 002:688.549 JLINK_ClrBPEx(BPHandle = 0x00000004)
T61D0 002:688.554 - 0.005ms returns 0x00
T61D0 002:688.602 JLINK_HasError()
T61D0 002:688.608 JLINK_ClrBPEx(BPHandle = 0x00000005)
T61D0 002:688.613 - 0.005ms returns 0x00
T61D0 002:688.618 JLINK_HasError()
T61D0 002:688.623 JLINK_HasError()
T61D0 002:688.628 JLINK_ReadMemU32(0xE000ED30, 0x1 Items)
T61D0 002:688.639   CPU_ReadMem(4 bytes @ 0xE000ED30)
T61D0 002:688.951   Data:  02 00 00 00
T61D0 002:688.959 - 0.330ms returns 1 (0x1)
T61D0 002:688.965 JLINK_ReadMemU32(0xE0001028, 0x1 Items)
T61D0 002:688.971   CPU_ReadMem(4 bytes @ 0xE0001028)
T61D0 002:689.273   Data:  00 00 00 00
T61D0 002:689.291   Debug reg: DWT_FUNC[0]
T61D0 002:689.298 - 0.333ms returns 1 (0x1)
T61D0 002:689.306 JLINK_ReadMemU32(0xE0001038, 0x1 Items)
T61D0 002:689.319   CPU_ReadMem(4 bytes @ 0xE0001038)
T61D0 002:689.550   Data:  00 02 00 00
T61D0 002:689.557   Debug reg: DWT_FUNC[1]
T61D0 002:689.562 - 0.256ms returns 1 (0x1)
T61D0 002:689.567 JLINK_ReadMemU32(0xE0001048, 0x1 Items)
T61D0 002:689.573   CPU_ReadMem(4 bytes @ 0xE0001048)
T61D0 002:689.781   Data:  00 00 00 00
T61D0 002:689.787   Debug reg: DWT_FUNC[2]
T61D0 002:689.792 - 0.224ms returns 1 (0x1)
T61D0 002:689.797 JLINK_ReadMemU32(0xE0001058, 0x1 Items)
T61D0 002:689.803   CPU_ReadMem(4 bytes @ 0xE0001058)
T61D0 002:690.016   Data:  00 00 00 00
T61D0 002:690.022   Debug reg: DWT_FUNC[3]
T61D0 002:690.027 - 0.230ms returns 1 (0x1)
T61D0 002:690.053 JLINK_HasError()
T61D0 002:690.058 JLINK_ReadReg(R0)
T61D0 002:690.063 - 0.005ms returns 0x80000000
T61D0 002:690.068 JLINK_ReadReg(R1)
T61D0 002:690.072 - 0.004ms returns 0x00000040
T61D0 002:690.077 JLINK_ReadReg(R2)
T61D0 002:690.081 - 0.004ms returns 0x00000000
T61D0 002:690.085 JLINK_ReadReg(R3)
T61D0 002:690.089 - 0.004ms returns 0x40008000
T61D0 002:690.093 JLINK_ReadReg(R4)
T61D0 002:690.097 - 0.003ms returns 0x48000400
T61D0 002:690.102 JLINK_ReadReg(R5)
T61D0 002:690.106 - 0.003ms returns 0x00001000
T61D0 002:690.110 JLINK_ReadReg(R6)
T61D0 002:690.114 - 0.004ms returns 0x48000000
T61D0 002:690.119 JLINK_ReadReg(R7)
T61D0 002:690.123 - 0.003ms returns 0x00000800
T61D0 002:690.127 JLINK_ReadReg(R8)
T61D0 002:690.131 - 0.004ms returns 0x00000000
T61D0 002:690.136 JLINK_ReadReg(R9)
T61D0 002:690.140 - 0.003ms returns 0x00000000
T61D0 002:690.145 JLINK_ReadReg(R10)
T61D0 002:690.149 - 0.003ms returns 0x00000000
T61D0 002:690.152 JLINK_ReadReg(R11)
T61D0 002:690.156 - 0.003ms returns 0x00000000
T61D0 002:690.166 JLINK_ReadReg(R12)
T61D0 002:690.169 - 0.003ms returns 0x40008000
T61D0 002:690.174 JLINK_ReadReg(R13 (SP))
T61D0 002:690.178 - 0.004ms returns 0x20000518
T61D0 002:690.182 JLINK_ReadReg(R14)
T61D0 002:690.185 - 0.003ms returns 0xFFFFFFF9
T61D0 002:690.189 JLINK_ReadReg(R15 (PC))
T61D0 002:690.193 - 0.003ms returns 0x0800057E
T61D0 002:690.197 JLINK_ReadReg(XPSR)
T61D0 002:690.201 - 0.003ms returns 0x81000038
T61D0 002:690.205 JLINK_ReadReg(MSP)
T61D0 002:690.208 - 0.003ms returns 0x20000518
T61D0 002:690.213 JLINK_ReadReg(PSP)
T61D0 002:690.216 - 0.003ms returns 0x00000000
T61D0 002:690.220 JLINK_ReadReg(CFBP)
T61D0 002:690.224 - 0.003ms returns 0x00000000
T61D0 002:690.228 JLINK_ReadReg(FPSCR)
T61D0 002:693.011 - 2.782ms returns 0x00000000
T61D0 002:693.016 JLINK_ReadReg(FPS0)
T61D0 002:693.020 - 0.004ms returns 0x00000000
T61D0 002:693.024 JLINK_ReadReg(FPS1)
T61D0 002:693.028 - 0.003ms returns 0x00000000
T61D0 002:693.032 JLINK_ReadReg(FPS2)
T61D0 002:693.035 - 0.003ms returns 0x00000000
T61D0 002:693.039 JLINK_ReadReg(FPS3)
T61D0 002:693.043 - 0.003ms returns 0x00000000
T61D0 002:693.088 JLINK_ReadReg(FPS4)
T61D0 002:693.093 - 0.005ms returns 0x00000000
T61D0 002:693.097 JLINK_ReadReg(FPS5)
T61D0 002:693.101 - 0.003ms returns 0x00000000
T61D0 002:693.105 JLINK_ReadReg(FPS6)
T61D0 002:693.108 - 0.003ms returns 0x00000000
T61D0 002:693.113 JLINK_ReadReg(FPS7)
T61D0 002:693.117 - 0.004ms returns 0x00000000
T61D0 002:693.121 JLINK_ReadReg(FPS8)
T61D0 002:693.124 - 0.003ms returns 0x00000000
T61D0 002:693.128 JLINK_ReadReg(FPS9)
T61D0 002:693.132 - 0.003ms returns 0x00000000
T61D0 002:693.136 JLINK_ReadReg(FPS10)
T61D0 002:693.139 - 0.003ms returns 0x00000000
T61D0 002:693.143 JLINK_ReadReg(FPS11)
T61D0 002:693.147 - 0.003ms returns 0x00000000
T61D0 002:693.151 JLINK_ReadReg(FPS12)
T61D0 002:693.155 - 0.003ms returns 0x00000000
T61D0 002:693.159 JLINK_ReadReg(FPS13)
T61D0 002:693.163 - 0.003ms returns 0x00000000
T61D0 002:693.166 JLINK_ReadReg(FPS14)
T61D0 002:693.170 - 0.003ms returns 0x00000000
T61D0 002:693.174 JLINK_ReadReg(FPS15)
T61D0 002:693.178 - 0.004ms returns 0x00000000
T61D0 002:693.182 JLINK_ReadReg(FPS16)
T61D0 002:693.185 - 0.003ms returns 0x00000000
T61D0 002:693.189 JLINK_ReadReg(FPS17)
T61D0 002:693.193 - 0.003ms returns 0x00000000
T61D0 002:693.197 JLINK_ReadReg(FPS18)
T61D0 002:693.200 - 0.003ms returns 0x00000000
T61D0 002:693.205 JLINK_ReadReg(FPS19)
T61D0 002:693.208 - 0.003ms returns 0x00000000
T61D0 002:693.212 JLINK_ReadReg(FPS20)
T61D0 002:693.216 - 0.003ms returns 0x00000000
T61D0 002:693.220 JLINK_ReadReg(FPS21)
T61D0 002:693.223 - 0.003ms returns 0x00000000
T61D0 002:693.227 JLINK_ReadReg(FPS22)
T61D0 002:693.231 - 0.003ms returns 0x00000000
T61D0 002:693.235 JLINK_ReadReg(FPS23)
T61D0 002:693.239 - 0.003ms returns 0x00000000
T61D0 002:693.243 JLINK_ReadReg(FPS24)
T61D0 002:693.246 - 0.003ms returns 0x00000000
T61D0 002:693.250 JLINK_ReadReg(FPS25)
T61D0 002:693.254 - 0.003ms returns 0x00000000
T61D0 002:693.258 JLINK_ReadReg(FPS26)
T61D0 002:693.261 - 0.003ms returns 0x00000000
T61D0 002:693.265 JLINK_ReadReg(FPS27)
T61D0 002:693.269 - 0.003ms returns 0x00000000
T61D0 002:693.273 JLINK_ReadReg(FPS28)
T61D0 002:693.277 - 0.003ms returns 0x00000000
T61D0 002:693.281 JLINK_ReadReg(FPS29)
T61D0 002:693.284 - 0.003ms returns 0x00000000
T61D0 002:693.288 JLINK_ReadReg(FPS30)
T61D0 002:693.292 - 0.003ms returns 0x00000000
T61D0 002:693.296 JLINK_ReadReg(FPS31)
T61D0 002:693.300 - 0.003ms returns 0x00000000
T3034 002:693.421 JLINK_ReadMemEx(0x2000051C, 0x4 Bytes, Flags = 0x02000000)
T3034 002:693.431   CPU_ReadMem(64 bytes @ 0x20000500)
T3034 002:693.979    -- Updating C cache (64 bytes @ 0x20000500)
T3034 002:694.005    -- Read from C cache (4 bytes @ 0x2000051C)
T3034 002:694.022   Data:  F9 FF FF FF
T3034 002:694.038 - 0.616ms returns 4 (0x4)
T3034 002:694.057 JLINK_ReadMemEx(0x20000538, 0x4 Bytes, Flags = 0x02000000)
T3034 002:694.075    -- Read from C cache (4 bytes @ 0x20000538)
T3034 002:694.091   Data:  98 05 00 08
T3034 002:694.107 - 0.049ms returns 4 (0x4)
T3034 002:694.120 JLINK_ReadMemEx(0x2000053C, 0x4 Bytes, Flags = 0x02000000)
T3034 002:694.133    -- Read from C cache (4 bytes @ 0x2000053C)
T3034 002:694.149   Data:  00 E0 00 21
T3034 002:694.164 - 0.044ms returns 4 (0x4)
T3034 002:694.177 JLINK_ReadMemEx(0x20000534, 0x4 Bytes, Flags = 0x02000000)
T3034 002:694.188    -- Read from C cache (4 bytes @ 0x20000534)
T3034 002:694.199   Data:  93 04 00 08
T3034 002:694.210 - 0.032ms returns 4 (0x4)
T3034 002:694.219 JLINK_ReadMemEx(0xE000ED28, 0x4 Bytes, Flags = 0x02000000)
T3034 002:694.234   CPU_ReadMem(4 bytes @ 0xE000ED28)
T3034 002:694.474   Data:  00 00 00 00
T3034 002:694.484 - 0.264ms returns 4 (0x4)
T3034 002:709.438 JLINK_ReadMemEx(0x00000000, 0x4 Bytes, Flags = 0x02000000)
T3034 002:709.468   CPU_ReadMem(4 bytes @ 0x00000004)
T3034 002:709.730   CPU_ReadMem(64 bytes @ 0x08000000)
T3034 002:710.284    -- Updating C cache (64 bytes @ 0x08000000)
T3034 002:710.290    -- Read from C cache (4 bytes @ 0x08000000)
T3034 002:710.295   Data:  70 05 00 20
T3034 002:710.301 - 0.863ms returns 4 (0x4)
T3034 002:710.578 JLINK_HasError()
T3034 002:710.587 JLINK_ReadMemU32(0xE0001004, 0x1 Items)
T3034 002:710.596   CPU_ReadMem(4 bytes @ 0xE0001004)
T3034 002:710.825   Data:  18 FE 25 02
T3034 002:710.831   Debug reg: DWT_CYCCNT
T3034 002:710.836 - 0.249ms returns 1 (0x1)
T3034 002:712.660 JLINK_ReadMemEx(0x0800057E, 0x2 Bytes, Flags = 0x02000000)
T3034 002:712.676   CPU_ReadMem(64 bytes @ 0x08000540)
T3034 002:713.289    -- Updating C cache (64 bytes @ 0x08000540)
T3034 002:713.299    -- Read from C cache (2 bytes @ 0x0800057E)
T3034 002:713.304   Data:  FF F7
T3034 002:713.310 - 0.650ms returns 2 (0x2)
T3034 002:713.317 JLINK_ReadMemEx(0x08000580, 0x3C Bytes, Flags = 0x02000000)
T3034 002:713.323   CPU_ReadMem(64 bytes @ 0x08000580)
T3034 002:713.824    -- Updating C cache (64 bytes @ 0x08000580)
T3034 002:713.830    -- Read from C cache (60 bytes @ 0x08000580)
T3034 002:713.835   Data:  BB FE BD E8 10 40 4F F4 00 40 00 F0 19 B8 00 00 ...
T3034 002:713.840 - 0.523ms returns 60 (0x3C)
T61D0 005:436.579 JLINK_ReadMemEx(0x0800057E, 0x2 Bytes, Flags = 0x02000000)
T61D0 005:436.650    -- Read from C cache (2 bytes @ 0x0800057E)
T61D0 005:436.665   Data:  FF F7
T61D0 005:436.680 - 0.102ms returns 2 (0x2)
T61D0 005:436.693 JLINK_HasError()
T61D0 005:436.708 JLINK_Step()
T61D0 005:437.122    -- Read from C cache (2 bytes @ 0x0800057E)
T61D0 005:437.156   CPU_ReadMem(4 bytes @ 0xE000ED18)
T61D0 005:437.448   CPU_WriteMem(4 bytes @ 0xE000ED18)
T61D0 005:437.972   CPU_ReadMem(4 bytes @ 0xE000ED18)
T61D0 005:438.258   CPU_WriteMem(4 bytes @ 0xE000ED18)
T61D0 005:438.521    -- Read from C cache (2 bytes @ 0x08000580)
T61D0 005:440.516   -- Simulated
T61D0 005:440.531 - 3.822ms returns 0
T61D0 005:440.558 JLINK_HasError()
T61D0 005:440.613 JLINK_ReadReg(R15 (PC))
T61D0 005:440.638 - 0.024ms returns 0x080002F8
T61D0 005:440.649 JLINK_ReadReg(XPSR)
T61D0 005:440.657 - 0.008ms returns 0x81000038
T61D0 005:440.672 JLINK_HasError()
T61D0 005:440.683 JLINK_SetBPEx(Addr = 0x08002E04, Type = 0xFFFFFFF2)
T61D0 005:440.693 - 0.010ms returns 0x00000006
T61D0 005:440.702 JLINK_HasError()
T61D0 005:440.711 JLINK_SetBPEx(Addr = 0x0800057E, Type = 0xFFFFFFF2)
T61D0 005:440.720 - 0.008ms returns 0x00000007
T61D0 005:440.728 JLINK_HasError()
T61D0 005:440.737 JLINK_HasError()
T61D0 005:440.746 JLINK_Go()
T61D0 005:440.760   CPU_WriteMem(4 bytes @ 0xE0002000)
T61D0 005:441.070   CPU_WriteMem(4 bytes @ 0xE0002000)
T61D0 005:441.346   CPU_ReadMem(4 bytes @ 0xE0001000)
T61D0 005:441.559   CPU_WriteMem(4 bytes @ 0xE0001004)
T61D0 005:442.515 - 1.766ms
T61D0 005:542.820 JLINK_HasError()
T61D0 005:542.840 JLINK_IsHalted()
T61D0 005:543.247 - 0.407ms returns FALSE
T61D0 005:643.830 JLINK_HasError()
T61D0 005:643.851 JLINK_IsHalted()
T61D0 005:644.277 - 0.425ms returns FALSE
T61D0 005:745.034 JLINK_HasError()
T61D0 005:745.054 JLINK_IsHalted()
T61D0 005:747.579 - 2.524ms returns TRUE
T61D0 005:747.599 JLINK_HasError()
T61D0 005:747.606 JLINK_Halt()
T61D0 005:747.613 - 0.006ms returns 0x00
T61D0 005:747.620 JLINK_IsHalted()
T61D0 005:747.629 - 0.009ms returns TRUE
T61D0 005:747.637 JLINK_IsHalted()
T61D0 005:747.642 - 0.005ms returns TRUE
T61D0 005:747.649 JLINK_IsHalted()
T61D0 005:747.655 - 0.005ms returns TRUE
T61D0 005:747.663 JLINK_HasError()
T61D0 005:747.671 JLINK_ReadReg(R15 (PC))
T61D0 005:747.680 - 0.009ms returns 0x0800057E
T61D0 005:747.687 JLINK_ReadReg(XPSR)
T61D0 005:747.693 - 0.006ms returns 0x81000038
T61D0 005:747.704 JLINK_HasError()
T61D0 005:747.711 JLINK_ClrBPEx(BPHandle = 0x00000006)
T61D0 005:747.718 - 0.006ms returns 0x00
T61D0 005:747.725 JLINK_HasError()
T61D0 005:747.732 JLINK_ClrBPEx(BPHandle = 0x00000007)
T61D0 005:747.738 - 0.006ms returns 0x00
T61D0 005:747.746 JLINK_HasError()
T61D0 005:747.752 JLINK_HasError()
T61D0 005:747.759 JLINK_ReadMemU32(0xE000ED30, 0x1 Items)
T61D0 005:747.770   CPU_ReadMem(4 bytes @ 0xE000ED30)
T61D0 005:748.148   Data:  02 00 00 00
T61D0 005:748.164 - 0.404ms returns 1 (0x1)
T61D0 005:748.179 JLINK_ReadMemU32(0xE0001028, 0x1 Items)
T61D0 005:748.212   CPU_ReadMem(4 bytes @ 0xE0001028)
T61D0 005:748.554   Data:  00 00 00 00
T61D0 005:748.571   Debug reg: DWT_FUNC[0]
T61D0 005:748.579 - 0.399ms returns 1 (0x1)
T61D0 005:748.594 JLINK_ReadMemU32(0xE0001038, 0x1 Items)
T61D0 005:748.606   CPU_ReadMem(4 bytes @ 0xE0001038)
T61D0 005:748.994   Data:  00 02 00 00
T61D0 005:749.010   Debug reg: DWT_FUNC[1]
T61D0 005:749.018 - 0.424ms returns 1 (0x1)
T61D0 005:749.033 JLINK_ReadMemU32(0xE0001048, 0x1 Items)
T61D0 005:749.045   CPU_ReadMem(4 bytes @ 0xE0001048)
T61D0 005:749.380   Data:  00 00 00 00
T61D0 005:749.395   Debug reg: DWT_FUNC[2]
T61D0 005:749.403 - 0.370ms returns 1 (0x1)
T61D0 005:749.415 JLINK_ReadMemU32(0xE0001058, 0x1 Items)
T61D0 005:749.426   CPU_ReadMem(4 bytes @ 0xE0001058)
T61D0 005:749.819   Data:  00 00 00 00
T61D0 005:749.888   Debug reg: DWT_FUNC[3]
T61D0 005:749.893 - 0.478ms returns 1 (0x1)
T61D0 005:749.976 JLINK_HasError()
T61D0 005:749.982 JLINK_ReadReg(R0)
T61D0 005:749.988 - 0.006ms returns 0x80000000
T61D0 005:749.992 JLINK_ReadReg(R1)
T61D0 005:749.996 - 0.003ms returns 0x00000000
T61D0 005:750.000 JLINK_ReadReg(R2)
T61D0 005:750.003 - 0.003ms returns 0x00000000
T61D0 005:750.007 JLINK_ReadReg(R3)
T61D0 005:750.011 - 0.003ms returns 0x00000064
T61D0 005:750.015 JLINK_ReadReg(R4)
T61D0 005:750.019 - 0.003ms returns 0x200000BC
T61D0 005:750.023 JLINK_ReadReg(R5)
T61D0 005:750.032 - 0.008ms returns 0x00000064
T61D0 005:750.042 JLINK_ReadReg(R6)
T61D0 005:750.051 - 0.008ms returns 0x00001800
T61D0 005:750.060 JLINK_ReadReg(R7)
T61D0 005:750.069 - 0.008ms returns 0x00000000
T61D0 005:750.083 JLINK_ReadReg(R8)
T61D0 005:750.092 - 0.013ms returns 0x00000064
T61D0 005:750.102 JLINK_ReadReg(R9)
T61D0 005:750.112 - 0.009ms returns 0x000001B0
T61D0 005:750.122 JLINK_ReadReg(R10)
T61D0 005:750.131 - 0.009ms returns 0x00000000
T61D0 005:750.140 JLINK_ReadReg(R11)
T61D0 005:750.149 - 0.008ms returns 0x00000600
T61D0 005:750.159 JLINK_ReadReg(R12)
T61D0 005:750.168 - 0.008ms returns 0x40008000
T61D0 005:750.178 JLINK_ReadReg(R13 (SP))
T61D0 005:750.188 - 0.009ms returns 0x200004B0
T61D0 005:750.198 JLINK_ReadReg(R14)
T61D0 005:750.207 - 0.009ms returns 0xFFFFFFF9
T61D0 005:750.217 JLINK_ReadReg(R15 (PC))
T61D0 005:750.227 - 0.009ms returns 0x0800057E
T61D0 005:750.241 JLINK_ReadReg(XPSR)
T61D0 005:750.250 - 0.009ms returns 0x81000038
T61D0 005:750.260 JLINK_ReadReg(MSP)
T61D0 005:750.269 - 0.009ms returns 0x200004B0
T61D0 005:750.280 JLINK_ReadReg(PSP)
T61D0 005:750.289 - 0.009ms returns 0x00000000
T61D0 005:750.299 JLINK_ReadReg(CFBP)
T61D0 005:750.308 - 0.009ms returns 0x00000000
T61D0 005:750.318 JLINK_ReadReg(FPSCR)
T61D0 005:753.215 - 2.896ms returns 0x00000000
T61D0 005:753.226 JLINK_ReadReg(FPS0)
T61D0 005:753.231 - 0.005ms returns 0x00000000
T61D0 005:753.235 JLINK_ReadReg(FPS1)
T61D0 005:753.238 - 0.003ms returns 0x00000000
T61D0 005:753.242 JLINK_ReadReg(FPS2)
T61D0 005:753.246 - 0.003ms returns 0x00000000
T61D0 005:753.249 JLINK_ReadReg(FPS3)
T61D0 005:753.253 - 0.003ms returns 0x00000000
T61D0 005:753.257 JLINK_ReadReg(FPS4)
T61D0 005:753.260 - 0.003ms returns 0x00000000
T61D0 005:753.264 JLINK_ReadReg(FPS5)
T61D0 005:753.268 - 0.003ms returns 0x00000000
T61D0 005:753.271 JLINK_ReadReg(FPS6)
T61D0 005:753.275 - 0.003ms returns 0x00000000
T61D0 005:753.279 JLINK_ReadReg(FPS7)
T61D0 005:753.282 - 0.003ms returns 0x00000000
T61D0 005:753.286 JLINK_ReadReg(FPS8)
T61D0 005:753.289 - 0.003ms returns 0x00000000
T61D0 005:753.293 JLINK_ReadReg(FPS9)
T61D0 005:753.297 - 0.003ms returns 0x00000000
T61D0 005:753.300 JLINK_ReadReg(FPS10)
T61D0 005:753.304 - 0.003ms returns 0x00000000
T61D0 005:753.308 JLINK_ReadReg(FPS11)
T61D0 005:753.311 - 0.003ms returns 0x00000000
T61D0 005:753.315 JLINK_ReadReg(FPS12)
T61D0 005:753.318 - 0.003ms returns 0x00000000
T61D0 005:753.322 JLINK_ReadReg(FPS13)
T61D0 005:753.326 - 0.003ms returns 0x00000000
T61D0 005:753.329 JLINK_ReadReg(FPS14)
T61D0 005:753.333 - 0.003ms returns 0x00000000
T61D0 005:753.338 JLINK_ReadReg(FPS15)
T61D0 005:753.343 - 0.004ms returns 0x00000000
T61D0 005:753.347 JLINK_ReadReg(FPS16)
T61D0 005:753.350 - 0.003ms returns 0x00000000
T61D0 005:753.354 JLINK_ReadReg(FPS17)
T61D0 005:753.357 - 0.003ms returns 0x00000000
T61D0 005:753.361 JLINK_ReadReg(FPS18)
T61D0 005:753.365 - 0.003ms returns 0x00000000
T61D0 005:753.368 JLINK_ReadReg(FPS19)
T61D0 005:753.372 - 0.003ms returns 0x00000000
T61D0 005:753.376 JLINK_ReadReg(FPS20)
T61D0 005:753.379 - 0.003ms returns 0x00000000
T61D0 005:753.383 JLINK_ReadReg(FPS21)
T61D0 005:753.386 - 0.003ms returns 0x00000000
T61D0 005:753.390 JLINK_ReadReg(FPS22)
T61D0 005:753.394 - 0.003ms returns 0x00000000
T61D0 005:753.397 JLINK_ReadReg(FPS23)
T61D0 005:753.401 - 0.003ms returns 0x00000000
T61D0 005:753.405 JLINK_ReadReg(FPS24)
T61D0 005:753.408 - 0.003ms returns 0x00000000
T61D0 005:753.412 JLINK_ReadReg(FPS25)
T61D0 005:753.415 - 0.003ms returns 0x00000000
T61D0 005:753.419 JLINK_ReadReg(FPS26)
T61D0 005:753.422 - 0.003ms returns 0x00000000
T61D0 005:753.426 JLINK_ReadReg(FPS27)
T61D0 005:753.429 - 0.003ms returns 0x00000000
T61D0 005:753.433 JLINK_ReadReg(FPS28)
T61D0 005:753.437 - 0.003ms returns 0x00000000
T61D0 005:753.440 JLINK_ReadReg(FPS29)
T61D0 005:753.444 - 0.003ms returns 0x00000000
T61D0 005:753.448 JLINK_ReadReg(FPS30)
T61D0 005:753.451 - 0.003ms returns 0x00000000
T61D0 005:753.455 JLINK_ReadReg(FPS31)
T61D0 005:753.459 - 0.003ms returns 0x00000000
T3034 005:753.757 JLINK_ReadMemEx(0x200004B4, 0x4 Bytes, Flags = 0x02000000)
T3034 005:753.811   CPU_ReadMem(64 bytes @ 0x20000480)
T3034 005:754.323    -- Updating C cache (64 bytes @ 0x20000480)
T3034 005:754.330    -- Read from C cache (4 bytes @ 0x200004B4)
T3034 005:754.336   Data:  F9 FF FF FF
T3034 005:754.343 - 0.587ms returns 4 (0x4)
T3034 005:754.350 JLINK_ReadMemEx(0x200004D0, 0x4 Bytes, Flags = 0x02000000)
T3034 005:754.358   CPU_ReadMem(64 bytes @ 0x200004C0)
T3034 005:754.901    -- Updating C cache (64 bytes @ 0x200004C0)
T3034 005:754.908    -- Read from C cache (4 bytes @ 0x200004D0)
T3034 005:754.914   Data:  C0 22 00 08
T3034 005:754.920 - 0.569ms returns 4 (0x4)
T3034 005:754.926 JLINK_ReadMemEx(0x200004D4, 0x4 Bytes, Flags = 0x02000000)
T3034 005:754.931    -- Read from C cache (4 bytes @ 0x200004D4)
T3034 005:754.937   Data:  00 00 00 01
T3034 005:754.943 - 0.017ms returns 4 (0x4)
T3034 005:754.948 JLINK_ReadMemEx(0x200004CC, 0x4 Bytes, Flags = 0x02000000)
T3034 005:754.953    -- Read from C cache (4 bytes @ 0x200004CC)
T3034 005:754.959   Data:  AD 22 00 08
T3034 005:754.965 - 0.016ms returns 4 (0x4)
T3034 005:754.970 JLINK_ReadMemEx(0xE000ED28, 0x4 Bytes, Flags = 0x02000000)
T3034 005:754.976   CPU_ReadMem(4 bytes @ 0xE000ED28)
T3034 005:755.215   Data:  00 00 00 00
T3034 005:755.220 - 0.249ms returns 4 (0x4)
T3034 005:765.094 JLINK_ReadMemEx(0x20000504, 0x4 Bytes, Flags = 0x02000000)
T3034 005:765.117   CPU_ReadMem(64 bytes @ 0x20000500)
T3034 005:765.672    -- Updating C cache (64 bytes @ 0x20000500)
T3034 005:765.679    -- Read from C cache (4 bytes @ 0x20000504)
T3034 005:765.685   Data:  55 22 00 08
T3034 005:765.691 - 0.598ms returns 4 (0x4)
T3034 005:765.701 JLINK_ReadMemEx(0x200004E4, 0x4 Bytes, Flags = 0x02000000)
T3034 005:765.706    -- Read from C cache (4 bytes @ 0x200004E4)
T3034 005:765.712   Data:  BC 00 00 20
T3034 005:765.717 - 0.016ms returns 4 (0x4)
T3034 005:765.722 JLINK_ReadMemEx(0x200004E8, 0x4 Bytes, Flags = 0x02000000)
T3034 005:765.726    -- Read from C cache (4 bytes @ 0x200004E8)
T3034 005:765.732   Data:  B0 01 00 00
T3034 005:765.737 - 0.015ms returns 4 (0x4)
T3034 005:765.742 JLINK_ReadMemEx(0x200004EC, 0x4 Bytes, Flags = 0x02000000)
T3034 005:765.746    -- Read from C cache (4 bytes @ 0x200004EC)
T3034 005:765.751   Data:  64 00 00 00
T3034 005:765.757 - 0.015ms returns 4 (0x4)
T3034 005:765.761 JLINK_ReadMemEx(0x200004F0, 0x4 Bytes, Flags = 0x02000000)
T3034 005:765.765    -- Read from C cache (4 bytes @ 0x200004F0)
T3034 005:765.771   Data:  01 00 00 00
T3034 005:765.780 - 0.018ms returns 4 (0x4)
T3034 005:765.784 JLINK_ReadMemEx(0x200004F4, 0x4 Bytes, Flags = 0x02000000)
T3034 005:765.789    -- Read from C cache (4 bytes @ 0x200004F4)
T3034 005:765.794   Data:  64 00 00 00
T3034 005:765.799 - 0.014ms returns 4 (0x4)
T3034 005:765.804 JLINK_ReadMemEx(0x200004F8, 0x4 Bytes, Flags = 0x02000000)
T3034 005:765.808    -- Read from C cache (4 bytes @ 0x200004F8)
T3034 005:765.813   Data:  B0 01 00 00
T3034 005:765.819 - 0.014ms returns 4 (0x4)
T3034 005:765.823 JLINK_ReadMemEx(0x200004FC, 0x4 Bytes, Flags = 0x02000000)
T3034 005:765.827    -- Read from C cache (4 bytes @ 0x200004FC)
T3034 005:765.833   Data:  50 05 00 20
T3034 005:765.838 - 0.014ms returns 4 (0x4)
T3034 005:765.842 JLINK_ReadMemEx(0x20000500, 0x4 Bytes, Flags = 0x02000000)
T3034 005:765.847    -- Read from C cache (4 bytes @ 0x20000500)
T3034 005:765.852   Data:  00 00 00 00
T3034 005:765.857 - 0.014ms returns 4 (0x4)
T3034 005:765.863 JLINK_ReadMemEx(0x2000051C, 0x4 Bytes, Flags = 0x02000000)
T3034 005:765.867    -- Read from C cache (4 bytes @ 0x2000051C)
T3034 005:765.873   Data:  6F 17 00 08
T3034 005:765.878 - 0.015ms returns 4 (0x4)
T3034 005:765.885 JLINK_ReadMemEx(0x2000050C, 0x4 Bytes, Flags = 0x02000000)
T3034 005:765.889    -- Read from C cache (4 bytes @ 0x2000050C)
T3034 005:765.895   Data:  BC 00 00 20
T3034 005:765.900 - 0.015ms returns 4 (0x4)
T3034 005:765.905 JLINK_ReadMemEx(0x20000510, 0x4 Bytes, Flags = 0x02000000)
T3034 005:765.909    -- Read from C cache (4 bytes @ 0x20000510)
T3034 005:765.914   Data:  00 00 00 00
T3034 005:765.919 - 0.015ms returns 4 (0x4)
T3034 005:765.924 JLINK_ReadMemEx(0x20000514, 0x4 Bytes, Flags = 0x02000000)
T3034 005:765.928    -- Read from C cache (4 bytes @ 0x20000514)
T3034 005:765.933   Data:  01 00 00 00
